
T1C34 000:134 SEGGER J-Link V6.10i Log File (0000ms, 0121ms total)
T1C34 000:134 DLL Compiled: Oct 25 2016 19:31:51 (0000ms, 0121ms total)
T1C34 000:134 Logging started @ 2017-06-25 16:53 (0000ms, 0121ms total)
T1C34 000:134 JLINK_SetWarnOutHandler(...) (0000ms, 0121ms total)
T1C34 000:134 JLINK_OpenEx(...)
Firmware: J-Link V9 compiled Sep  1 2016 18:29:50
Hardware: V9.20
Feature(s): GDB, RDI, FlashBP, FlashDL, JFlashWEBSRV Webserver running on local port 19080 (0105ms, 0226ms total)
T1C34 000:134   returns O.K. (0105ms, 0226ms total)
T1C34 000:239 JLINK_SetErrorOutHandler(...) (0000ms, 0226ms total)
T1C34 000:239 JLINK_ExecCommand("ProjectFile = "F:\Work\Project\LiteOS\PortingContest2\PortingContest\PortingContest_LAUNCHXL-CC3220SF\projects\LAUNCHXL-CC3220SF\JLinkSettings.ini"", ...).   returns 0x00 (0127ms, 0353ms total)
T1C34 000:370 JLINK_ExecCommand("Device = ARMCM4_FP", ...). Device "CORTEX-M4" selected.  returns 0x00 (0003ms, 0356ms total)
T1C34 000:373 JLINK_ExecCommand("DisableConnectionTimeout", ...).   returns 0x01 (0000ms, 0356ms total)
T1C34 000:373 JLINK_GetHardwareVersion()  returns 0x16760 (0000ms, 0356ms total)
T1C34 000:373 JLINK_GetDLLVersion()  returns 61009 (0000ms, 0356ms total)
T1C34 000:373 JLINK_GetFirmwareString(...) (0000ms, 0356ms total)
T1C34 000:380 JLINK_GetDLLVersion()  returns 61009 (0000ms, 0356ms total)
T1C34 000:380 JLINK_GetCompileDateTime() (0000ms, 0356ms total)
T1C34 000:383 JLINK_GetFirmwareString(...) (0000ms, 0356ms total)
T1C34 000:387 JLINK_GetHardwareVersion()  returns 0x16760 (0000ms, 0356ms total)
T1C34 000:396 JLINK_TIF_Select(JLINKARM_TIF_SWD)  returns 0x00 (0004ms, 0360ms total)
T1C34 000:400 JLINK_SetSpeed(10000) (0001ms, 0361ms total)
T1C34 000:401 JLINK_GetId() >0x108 TIF>Found SWD-DP with ID 0x2BA01477 >0x0D TIF> >0x28 TIF> >0x0D TIF> >0x28 TIF> >0x0D TIF> >0x28 TIF> >0x0D TIF> >0x28 TIF> >0x0D TIF> >0x21 TIF> >0x0D TIF> >0x28 TIF> >0x0D TIF> >0x28 TIF> >0x0D TIF> >0x21 TIF> >0x0D TIF> >0x21 TIF> >0x0D TIF> >0x21 TIF>AP-IDR: 0x24770011, Type: AHB-AP >0x0D TIF> >0x28 TIF> >0x0D TIF> >0x28 TIF> >0x0D TIF> >0x28 TIF> >0x0D TIF> >0x21 TIF> >0x0D TIF> >0x21 TIF> >0x0D TIF> >0x28 TIF> >0x0D TIF> >0x21 TIF> >0x0D TIF> >0x21 TIF>
Found Cortex-M4 r0p1, Little endian. -- CPU_ReadMem(4 bytes @ 0xE000EDF0) -- CPU_ReadMem(4 bytes @ 0xE0002000)FPUnit: 6 code (BP) slots and 2 literal slots -- CPU_ReadMem(4 bytes @ 0xE000EDFC) -- CPU_WriteMem(4 bytes @ 0xE000EDFC) -- CPU_ReadMem(4 bytes @ 0xE0001000) -- CPU_WriteMem(4 bytes @ 0xE0001000) -- CPU_ReadMem(4 bytes @ 0xE000ED88) -- CPU_WriteMem(4 bytes @ 0xE000ED88) -- CPU_ReadMem(4 bytes @ 0xE000ED88) -- CPU_WriteMem(4 bytes @ 0xE000ED88)CoreSight components:ROMTbl 0 @ E00FF000
 -- CPU_ReadMem(16 bytes @ 0xE00FF000) -- CPU_ReadMem(16 bytes @ 0xE000EFF0) -- CPU_ReadMem(16 bytes @ 0xE000EFE0)ROMTbl 0 [0]: FFF0F000, CID: B105E00D, PID: 000BB000 SCS -- CPU_ReadMem(16 bytes @ 0xE0001FF0) -- CPU_ReadMem(16 bytes @ 0xE0001FE0)ROMTbl 0 [1]: FFF02000, CID: B105E00D, PID: 003BB002 DWT -- CPU_ReadMem(16 bytes @ 0xE0002FF0) -- CPU_ReadMem(16 bytes @ 0xE0002FE0)ROMTbl 0 [2]: FFF03000, CID: B105E00D, PID: 002BB003 FPB -- CPU_ReadMem(16 bytes @ 0xE0000FF0)
 -- CPU_ReadMem(16 bytes @ 0xE0000FE0)ROMTbl 0 [3]: FFF01000, CID: B105E00D, PID: 003BB001 ITM -- CPU_ReadMem(16 bytes @ 0xE00FF010) -- CPU_ReadMem(16 bytes @ 0xE0040FF0) -- CPU_ReadMem(16 bytes @ 0xE0040FE0)ROMTbl 0 [4]: FFF41000, CID: B105900D, PID: 000BB9A1 TPIU -- CPU_ReadMem(16 bytes @ 0xE0041FF0) -- CPU_ReadMem(16 bytes @ 0xE0041FE0)ROMTbl 0 [5]: FFF42000, CID: B105900D, PID: 000BB925 ETM >0x0D TIF> >0x21 TIF>  returns 0x2BA01477 (0107ms, 0468ms total)
T1C34 000:508 JLINK_GetDLLVersion()  returns 61009 (0000ms, 0468ms total)
T1C34 000:508 JLINK_CORE_GetFound()  returns 0xE0000FF (0000ms, 0468ms total)
T1C34 000:508 JLINK_GetDebugInfo(0x100) -- Value=0xE00FF000  returns 0x00 (0000ms, 0468ms total)
T1C34 000:511 JLINK_GetDebugInfo(0x100) -- Value=0xE00FF000  returns 0x00 (0000ms, 0468ms total)
T1C34 000:511 JLINK_GetDebugInfo(0x101) -- Value=0xE0041000  returns 0x00 (0000ms, 0468ms total)
T1C34 000:511 JLINK_GetDebugInfo(0x102) -- Value=0x00000000  returns 0x00 (0000ms, 0468ms total)
T1C34 000:511 JLINK_GetDebugInfo(0x103) -- Value=0xE0040000  returns 0x00 (0000ms, 0468ms total)
T1C34 000:511 JLINK_GetDebugInfo(0x104) -- Value=0xE0000000  returns 0x00 (0000ms, 0468ms total)
T1C34 000:511 JLINK_GetDebugInfo(0x105) -- Value=0xE0001000  returns 0x00 (0000ms, 0468ms total)
T1C34 000:511 JLINK_GetDebugInfo(0x106) -- Value=0xE0002000  returns 0x00 (0000ms, 0468ms total)
T1C34 000:511 JLINK_GetDebugInfo(0x107) -- Value=0xE000E000  returns 0x00 (0000ms, 0468ms total)
T1C34 000:511 JLINK_GetDebugInfo(0x10C) -- Value=0xE000EDF0  returns 0x00 (0000ms, 0468ms total)
T1C34 000:511 JLINK_ReadMemU32(0xE000EF40, 0x0001 Items, ...) -- CPU is running -- CPU_ReadMem(4 bytes @ 0xE000EF40) - Data: 00 00 00 00  returns 0x01 (0001ms, 0469ms total)
T1C34 000:512 JLINK_ReadMemU32(0xE000ED00, 0x0001 Items, ...) -- CPU is running -- CPU_ReadMem(4 bytes @ 0xE000ED00) - Data: 41 C2 0F 41  returns 0x01 (0001ms, 0470ms total)
T1C34 000:513 JLINK_SetResetType(JLINKARM_RESET_TYPE_NORMAL)  returns JLINKARM_RESET_TYPE_NORMAL (0000ms, 0470ms total)
T1C34 000:513 JLINK_Reset() -- CPU is running -- CPU_WriteMem(4 bytes @ 0xE000EDF0) -- CPU is running -- CPU_WriteMem(4 bytes @ 0xE000EDFC) >0x35 TIF> -- CPU is running -- CPU_WriteMem(4 bytes @ 0xE000ED0C) -- CPU is running -- CPU_ReadMem(4 bytes @ 0xE000EDF0) -- CPU is running -- CPU_ReadMem(4 bytes @ 0xE000EDF0) -- CPU is running -- CPU_ReadMem(4 bytes @ 0xE000EDF0) -- CPU is running -- CPU_ReadMem(4 bytes @ 0xE000EDF0) -- CPU is running -- CPU_ReadMem(4 bytes @ 0xE000EDF0) -- CPU is running
 -- CPU_ReadMem(4 bytes @ 0xE000EDF0) -- CPU is running -- CPU_ReadMem(4 bytes @ 0xE000EDF0) -- CPU is running -- CPU_ReadMem(4 bytes @ 0xE000EDF0) -- CPU is running -- CPU_ReadMem(4 bytes @ 0xE000EDF0) -- CPU is running -- CPU_ReadMem(4 bytes @ 0xE000EDF0) -- CPU is running -- CPU_ReadMem(4 bytes @ 0xE000EDF0) -- CPU is running -- CPU_ReadMem(4 bytes @ 0xE000EDF0) -- CPU is running -- CPU_ReadMem(4 bytes @ 0xE000EDF0) -- CPU is running -- CPU_ReadMem(4 bytes @ 0xE000EDF0) -- CPU is running
 -- CPU_ReadMem(4 bytes @ 0xE000EDF0) -- CPU is running -- CPU_ReadMem(4 bytes @ 0xE000EDF0) -- CPU is running -- CPU_ReadMem(4 bytes @ 0xE000EDF0) -- CPU is running -- CPU_ReadMem(4 bytes @ 0xE000EDF0) -- CPU is running -- CPU_ReadMem(4 bytes @ 0xE000EDF0) -- CPU is running -- CPU_ReadMem(4 bytes @ 0xE000EDF0) -- CPU is running -- CPU_ReadMem(4 bytes @ 0xE000EDF0) -- CPU is running -- CPU_ReadMem(4 bytes @ 0xE000EDF0) -- CPU is running -- CPU_ReadMem(4 bytes @ 0xE000EDF0) -- CPU is running
 -- CPU_ReadMem(4 bytes @ 0xE000EDF0) -- CPU is running -- CPU_ReadMem(4 bytes @ 0xE000EDF0) -- CPU is running -- CPU_ReadMem(4 bytes @ 0xE000EDF0) -- CPU is running -- CPU_ReadMem(4 bytes @ 0xE000EDF0) -- CPU is running -- CPU_ReadMem(4 bytes @ 0xE000EDF0) -- CPU is running -- CPU_ReadMem(4 bytes @ 0xE000EDF0) -- CPU is running -- CPU_ReadMem(4 bytes @ 0xE000EDF0) -- CPU is running -- CPU_ReadMem(4 bytes @ 0xE000EDF0) -- CPU is running -- CPU_ReadMem(4 bytes @ 0xE000EDF0) -- CPU is running
 -- CPU_ReadMem(4 bytes @ 0xE000EDF0) -- CPU is running -- CPU_ReadMem(4 bytes @ 0xE000EDF0) -- CPU is running -- CPU_ReadMem(4 bytes @ 0xE000EDF0) -- CPU is running -- CPU_ReadMem(4 bytes @ 0xE000EDF0) -- CPU is running -- CPU_ReadMem(4 bytes @ 0xE000EDF0) -- CPU is running -- CPU_ReadMem(4 bytes @ 0xE000EDF0) -- CPU is running -- CPU_ReadMem(4 bytes @ 0xE000EDF0) -- CPU is running -- CPU_ReadMem(4 bytes @ 0xE000EDF0) -- CPU is running -- CPU_ReadMem(4 bytes @ 0xE000EDF0) -- CPU is running
 -- CPU_ReadMem(4 bytes @ 0xE000EDF0) -- CPU is running -- CPU_ReadMem(4 bytes @ 0xE000EDF0) -- CPU is running -- CPU_ReadMem(4 bytes @ 0xE000EDF0) -- CPU is running -- CPU_ReadMem(4 bytes @ 0xE000EDF0) -- CPU is running -- CPU_ReadMem(4 bytes @ 0xE000EDF0) -- CPU is running -- CPU_ReadMem(4 bytes @ 0xE000EDF0) -- CPU is running -- CPU_ReadMem(4 bytes @ 0xE000EDF0) -- CPU is running -- CPU_ReadMem(4 bytes @ 0xE000EDF0) -- CPU is running -- CPU_ReadMem(4 bytes @ 0xE000EDF0) -- CPU is running
 -- CPU_ReadMem(4 bytes @ 0xE000EDF0) -- CPU is running -- CPU_ReadMem(4 bytes @ 0xE000EDF0) -- CPU is running -- CPU_ReadMem(4 bytes @ 0xE000EDF0) -- CPU is running -- CPU_ReadMem(4 bytes @ 0xE000EDF0) -- CPU is running -- CPU_ReadMem(4 bytes @ 0xE000EDF0) -- CPU is running -- CPU_ReadMem(4 bytes @ 0xE000EDF0) -- CPU is running -- CPU_ReadMem(4 bytes @ 0xE000EDF0) -- CPU is running -- CPU_ReadMem(4 bytes @ 0xE000EDF0) -- CPU is running -- CPU_ReadMem(4 bytes @ 0xE000EDF0) -- CPU is running
 -- CPU_ReadMem(4 bytes @ 0xE000EDF0) -- CPU is running -- CPU_ReadMem(4 bytes @ 0xE000EDF0) -- CPU is running -- CPU_ReadMem(4 bytes @ 0xE000EDF0) -- CPU is running -- CPU_ReadMem(4 bytes @ 0xE000EDF0) -- CPU is running -- CPU_ReadMem(4 bytes @ 0xE000EDF0) -- CPU is running -- CPU_ReadMem(4 bytes @ 0xE000EDF0) -- CPU is running -- CPU_ReadMem(4 bytes @ 0xE000EDF0) -- CPU is running -- CPU_ReadMem(4 bytes @ 0xE000EDF0) -- CPU is running -- CPU_ReadMem(4 bytes @ 0xE000EDF0) -- CPU is running
 -- CPU_ReadMem(4 bytes @ 0xE000EDF0) -- CPU is running -- CPU_ReadMem(4 bytes @ 0xE000EDF0) -- CPU is running -- CPU_ReadMem(4 bytes @ 0xE000EDF0) -- CPU is running -- CPU_ReadMem(4 bytes @ 0xE000EDF0) -- CPU is running -- CPU_ReadMem(4 bytes @ 0xE000EDF0) -- CPU is running -- CPU_ReadMem(4 bytes @ 0xE000EDF0) -- CPU is running -- CPU_ReadMem(4 bytes @ 0xE000EDF0) -- CPU is running -- CPU_ReadMem(4 bytes @ 0xE000EDF0) -- CPU is running -- CPU_ReadMem(4 bytes @ 0xE000EDF0) -- CPU is running
 -- CPU_ReadMem(4 bytes @ 0xE000EDF0) -- CPU is running -- CPU_ReadMem(4 bytes @ 0xE000EDF0) -- CPU is running -- CPU_ReadMem(4 bytes @ 0xE000EDF0) -- CPU is running -- CPU_ReadMem(4 bytes @ 0xE000EDF0) -- CPU is running -- CPU_ReadMem(4 bytes @ 0xE000EDF0) -- CPU is running -- CPU_ReadMem(4 bytes @ 0xE000EDF0) -- CPU is running -- CPU_ReadMem(4 bytes @ 0xE000EDF0) -- CPU is running -- CPU_ReadMem(4 bytes @ 0xE000EDF0) -- CPU is running -- CPU_ReadMem(4 bytes @ 0xE000EDF0) -- CPU is running
 -- CPU_ReadMem(4 bytes @ 0xE000EDF0) -- CPU is running -- CPU_ReadMem(4 bytes @ 0xE000EDF0) -- CPU is running -- CPU_ReadMem(4 bytes @ 0xE000EDF0) -- CPU is running -- CPU_ReadMem(4 bytes @ 0xE000EDF0) -- CPU is running -- CPU_ReadMem(4 bytes @ 0xE000EDF0) -- CPU is running -- CPU_ReadMem(4 bytes @ 0xE000EDF0) -- CPU is running -- CPU_ReadMem(4 bytes @ 0xE000EDF0) -- CPU is running -- CPU_ReadMem(4 bytes @ 0xE000EDF0) -- CPU is running -- CPU_ReadMem(4 bytes @ 0xE000EDF0) -- CPU is running
 -- CPU_ReadMem(4 bytes @ 0xE000EDF0) -- CPU is running -- CPU_ReadMem(4 bytes @ 0xE000EDF0) -- CPU is running -- CPU_ReadMem(4 bytes @ 0xE000EDF0) -- CPU is running -- CPU_ReadMem(4 bytes @ 0xE000EDF0) -- CPU is running -- CPU_ReadMem(4 bytes @ 0xE000EDF0) -- CPU is running -- CPU_ReadMem(4 bytes @ 0xE000EDF0) -- CPU is running -- CPU_ReadMem(4 bytes @ 0xE000EDF0) -- CPU is running -- CPU_ReadMem(4 bytes @ 0xE000EDF0) -- CPU is running -- CPU_ReadMem(4 bytes @ 0xE000EDF0) -- CPU is running
 -- CPU_ReadMem(4 bytes @ 0xE000EDF0) -- CPU is running -- CPU_ReadMem(4 bytes @ 0xE000EDF0) -- CPU is running -- CPU_ReadMem(4 bytes @ 0xE000EDF0) -- CPU is running -- CPU_ReadMem(4 bytes @ 0xE000EDF0) -- CPU is running -- CPU_ReadMem(4 bytes @ 0xE000EDF0) -- CPU is running -- CPU_ReadMem(4 bytes @ 0xE000EDF0) -- CPU is running -- CPU_ReadMem(4 bytes @ 0xE000EDF0) -- CPU is running -- CPU_ReadMem(4 bytes @ 0xE000EDF0) -- CPU is running -- CPU_ReadMem(4 bytes @ 0xE000EDF0) -- CPU is running
 -- CPU_ReadMem(4 bytes @ 0xE000EDF0) -- CPU is running -- CPU_ReadMem(4 bytes @ 0xE000EDF0) -- CPU is running -- CPU_ReadMem(4 bytes @ 0xE000EDF0) -- CPU is running -- CPU_ReadMem(4 bytes @ 0xE000EDF0) -- CPU is running -- CPU_ReadMem(4 bytes @ 0xE000EDF0) -- CPU is running -- CPU_ReadMem(4 bytes @ 0xE000EDF0) -- CPU is running -- CPU_ReadMem(4 bytes @ 0xE000EDF0) -- CPU is running -- CPU_ReadMem(4 bytes @ 0xE000EDF0) -- CPU is running -- CPU_ReadMem(4 bytes @ 0xE000EDF0) -- CPU is running
 -- CPU_ReadMem(4 bytes @ 0xE000EDF0) -- CPU is running -- CPU_ReadMem(4 bytes @ 0xE000EDF0) -- CPU is running -- CPU_ReadMem(4 bytes @ 0xE000EDF0) -- CPU is running -- CPU_ReadMem(4 bytes @ 0xE000EDF0) -- CPU is running -- CPU_ReadMem(4 bytes @ 0xE000EDF0) -- CPU is running -- CPU_ReadMem(4 bytes @ 0xE000EDF0) -- CPU is running -- CPU_ReadMem(4 bytes @ 0xE000EDF0) -- CPU is running -- CPU_ReadMem(4 bytes @ 0xE000EDF0) -- CPU is running -- CPU_ReadMem(4 bytes @ 0xE000EDF0) -- CPU is running
 -- CPU_ReadMem(4 bytes @ 0xE000EDF0) -- CPU is running -- CPU_ReadMem(4 bytes @ 0xE000EDF0) -- CPU is running -- CPU_ReadMem(4 bytes @ 0xE000EDF0) -- CPU is running -- CPU_ReadMem(4 bytes @ 0xE000EDF0) -- CPU is running -- CPU_ReadMem(4 bytes @ 0xE000EDF0) -- CPU is running -- CPU_ReadMem(4 bytes @ 0xE000EDF0) -- CPU is running -- CPU_ReadMem(4 bytes @ 0xE000EDF0) -- CPU is running -- CPU_ReadMem(4 bytes @ 0xE000EDF0) -- CPU is running -- CPU_ReadMem(4 bytes @ 0xE000EDF0) -- CPU is running
 -- CPU_ReadMem(4 bytes @ 0xE000EDF0) -- CPU is running -- CPU_ReadMem(4 bytes @ 0xE000EDF0) -- CPU is running -- CPU_ReadMem(4 bytes @ 0xE000EDF0) -- CPU is running -- CPU_ReadMem(4 bytes @ 0xE000EDF0) -- CPU is running -- CPU_ReadMem(4 bytes @ 0xE000EDF0) -- CPU is running -- CPU_ReadMem(4 bytes @ 0xE000EDF0) -- CPU is running -- CPU_ReadMem(4 bytes @ 0xE000EDF0) -- CPU is running -- CPU_ReadMem(4 bytes @ 0xE000EDF0) -- CPU is running -- CPU_ReadMem(4 bytes @ 0xE000EDF0) -- CPU is running
 -- CPU_ReadMem(4 bytes @ 0xE000EDF0) -- CPU is running -- CPU_ReadMem(4 bytes @ 0xE000EDF0) -- CPU is running -- CPU_ReadMem(4 bytes @ 0xE000EDF0) -- CPU is running -- CPU_ReadMem(4 bytes @ 0xE000EDF0) -- CPU is running -- CPU_ReadMem(4 bytes @ 0xE000EDF0) -- CPU is running -- CPU_ReadMem(4 bytes @ 0xE000EDF0) -- CPU is running -- CPU_ReadMem(4 bytes @ 0xE000EDF0) -- CPU is running -- CPU_ReadMem(4 bytes @ 0xE000EDF0) -- CPU is running -- CPU_ReadMem(4 bytes @ 0xE000EDF0) -- CPU is running
 -- CPU_ReadMem(4 bytes @ 0xE000EDF0) -- CPU is running -- CPU_ReadMem(4 bytes @ 0xE000EDF0) -- CPU is running -- CPU_ReadMem(4 bytes @ 0xE000EDF0) -- CPU is running -- CPU_ReadMem(4 bytes @ 0xE000EDF0) -- CPU is running -- CPU_ReadMem(4 bytes @ 0xE000EDF0) -- CPU is running -- CPU_ReadMem(4 bytes @ 0xE000EDF0) -- CPU is running -- CPU_ReadMem(4 bytes @ 0xE000EDF0) -- CPU is running -- CPU_ReadMem(4 bytes @ 0xE000EDF0) -- CPU is running -- CPU_ReadMem(4 bytes @ 0xE000EDF0) -- CPU is running
 -- CPU_ReadMem(4 bytes @ 0xE000EDF0) -- CPU is running -- CPU_ReadMem(4 bytes @ 0xE000EDF0) -- CPU is running -- CPU_ReadMem(4 bytes @ 0xE000EDF0) -- CPU is running -- CPU_ReadMem(4 bytes @ 0xE000EDF0) -- CPU is running -- CPU_ReadMem(4 bytes @ 0xE000EDF0) -- CPU is running -- CPU_ReadMem(4 bytes @ 0xE000EDF0) -- CPU is running -- CPU_ReadMem(4 bytes @ 0xE000EDF0) -- CPU is running -- CPU_ReadMem(4 bytes @ 0xE000EDF0) -- CPU is running -- CPU_ReadMem(4 bytes @ 0xE000EDF0) -- CPU is running
 -- CPU_ReadMem(4 bytes @ 0xE000EDF0) -- CPU is running -- CPU_ReadMem(4 bytes @ 0xE000EDF0) -- CPU is running -- CPU_ReadMem(4 bytes @ 0xE000EDF0) -- CPU is running -- CPU_ReadMem(4 bytes @ 0xE000EDF0) -- CPU is running -- CPU_ReadMem(4 bytes @ 0xE000EDF0) -- CPU is running -- CPU_ReadMem(4 bytes @ 0xE000EDF0) -- CPU is running -- CPU_ReadMem(4 bytes @ 0xE000EDF0) -- CPU is running -- CPU_ReadMem(4 bytes @ 0xE000EDF0) -- CPU is running -- CPU_ReadMem(4 bytes @ 0xE000EDF0) -- CPU is running
 -- CPU_ReadMem(4 bytes @ 0xE000EDF0) -- CPU is running -- CPU_ReadMem(4 bytes @ 0xE000EDF0) -- CPU is running -- CPU_ReadMem(4 bytes @ 0xE000EDF0) -- CPU is running -- CPU_ReadMem(4 bytes @ 0xE000EDF0) -- CPU is running -- CPU_ReadMem(4 bytes @ 0xE000EDF0) -- CPU is running -- CPU_ReadMem(4 bytes @ 0xE000EDF0) -- CPU is running -- CPU_ReadMem(4 bytes @ 0xE000EDF0) -- CPU is running -- CPU_ReadMem(4 bytes @ 0xE000EDF0) -- CPU is running -- CPU_ReadMem(4 bytes @ 0xE000EDF0) -- CPU is running
 -- CPU_ReadMem(4 bytes @ 0xE000EDF0) -- CPU is running -- CPU_ReadMem(4 bytes @ 0xE000EDF0) -- CPU is running -- CPU_ReadMem(4 bytes @ 0xE000EDF0) -- CPU is running -- CPU_ReadMem(4 bytes @ 0xE000EDF0) -- CPU is running -- CPU_ReadMem(4 bytes @ 0xE000EDF0) -- CPU is running -- CPU_ReadMem(4 bytes @ 0xE000EDF0) -- CPU is running -- CPU_ReadMem(4 bytes @ 0xE000EDF0) -- CPU is running -- CPU_ReadMem(4 bytes @ 0xE000EDF0) -- CPU is running -- CPU_ReadMem(4 bytes @ 0xE000EDF0) -- CPU is running
 -- CPU_ReadMem(4 bytes @ 0xE000EDF0) -- CPU is running -- CPU_ReadMem(4 bytes @ 0xE000EDF0) -- CPU is running -- CPU_ReadMem(4 bytes @ 0xE000EDF0) -- CPU is running -- CPU_ReadMem(4 bytes @ 0xE000EDF0) -- CPU is running -- CPU_ReadMem(4 bytes @ 0xE000EDF0) -- CPU is running -- CPU_ReadMem(4 bytes @ 0xE000EDF0) -- CPU is running -- CPU_ReadMem(4 bytes @ 0xE000EDF0) -- CPU is running -- CPU_ReadMem(4 bytes @ 0xE000EDF0) -- CPU is running -- CPU_ReadMem(4 bytes @ 0xE000EDF0) -- CPU is running
 -- CPU_ReadMem(4 bytes @ 0xE000EDF0) -- CPU is running -- CPU_ReadMem(4 bytes @ 0xE000EDF0) -- CPU is running -- CPU_ReadMem(4 bytes @ 0xE000EDF0) -- CPU is running -- CPU_ReadMem(4 bytes @ 0xE000EDF0) -- CPU is running -- CPU_ReadMem(4 bytes @ 0xE000EDF0) -- CPU is running -- CPU_ReadMem(4 bytes @ 0xE000EDF0) -- CPU is running -- CPU_ReadMem(4 bytes @ 0xE000EDF0) -- CPU is running -- CPU_ReadMem(4 bytes @ 0xE000EDF0) -- CPU is running -- CPU_ReadMem(4 bytes @ 0xE000EDF0) -- CPU is running
 -- CPU_ReadMem(4 bytes @ 0xE000EDF0) -- CPU is running -- CPU_ReadMem(4 bytes @ 0xE000EDF0) -- CPU is running -- CPU_ReadMem(4 bytes @ 0xE000EDF0) -- CPU is running -- CPU_ReadMem(4 bytes @ 0xE000EDF0) -- CPU is running -- CPU_ReadMem(4 bytes @ 0xE000EDF0) -- CPU is running -- CPU_ReadMem(4 bytes @ 0xE000EDF0) -- CPU is running -- CPU_ReadMem(4 bytes @ 0xE000EDF0) -- CPU is running -- CPU_ReadMem(4 bytes @ 0xE000EDF0) -- CPU is running -- CPU_ReadMem(4 bytes @ 0xE000EDF0) -- CPU is running
 -- CPU_ReadMem(4 bytes @ 0xE000EDF0) -- CPU is running -- CPU_ReadMem(4 bytes @ 0xE000EDF0) -- CPU is running -- CPU_ReadMem(4 bytes @ 0xE000EDF0) -- CPU is running -- CPU_ReadMem(4 bytes @ 0xE000EDF0) -- CPU is running -- CPU_ReadMem(4 bytes @ 0xE000EDF0) -- CPU is running -- CPU_ReadMem(4 bytes @ 0xE000EDF0) -- CPU is running -- CPU_ReadMem(4 bytes @ 0xE000EDF0) -- CPU is running -- CPU_ReadMem(4 bytes @ 0xE000EDF0) -- CPU is running -- CPU_ReadMem(4 bytes @ 0xE000EDF0) -- CPU is running
 -- CPU_ReadMem(4 bytes @ 0xE000EDF0) -- CPU is running -- CPU_ReadMem(4 bytes @ 0xE000EDF0) -- CPU is running -- CPU_ReadMem(4 bytes @ 0xE000EDF0) -- CPU is running -- CPU_ReadMem(4 bytes @ 0xE000EDF0) -- CPU is running -- CPU_ReadMem(4 bytes @ 0xE000EDF0)Could not set S_RESET_ST -- CPU is running -- CPU_WriteMem(4 bytes @ 0xE000EDF0) -- CPU is running -- CPU_WriteMem(4 bytes @ 0xE000EDFC) -- CPU_WriteMem(4 bytes @ 0xE000EDF0) -- CPU_WriteMem(4 bytes @ 0xE000EDFC) -- CPU_ReadMem(4 bytes @ 0xE000EDF0)
 -- CPU_WriteMem(4 bytes @ 0xE000EDFC) -- CPU_WriteMem(4 bytes @ 0xE000ED0C) -- CPU_ReadMem(4 bytes @ 0xE000EDF0) -- CPU_ReadMem(4 bytes @ 0xE000EDF0) -- CPU_WriteMem(4 bytes @ 0xE000EDF0) -- CPU_WriteMem(4 bytes @ 0xE000EDFC) -- CPU is running -- CPU_ReadMem(4 bytes @ 0xE000EDF0) -- CPU_WriteMem(4 bytes @ 0xE0002000) -- CPU_ReadMem(4 bytes @ 0xE000EDFC) -- CPU_ReadMem(4 bytes @ 0xE0001000) (0421ms, 0891ms total)
T1C34 000:934 JLINK_Halt()  returns 0x00 (0000ms, 0891ms total)
T1C34 000:934 JLINK_IsHalted()  returns TRUE (0000ms, 0891ms total)
T1C34 000:934 JLINK_ReadMemU32(0xE000EDF0, 0x0001 Items, ...) -- CPU_ReadMem(4 bytes @ 0xE000EDF0) - Data: 03 00 03 00  returns 0x01 (0001ms, 0892ms total)
T1C34 000:935 JLINK_WriteU32(0xE000EDF0, 0xA05F0003) -- CPU_WriteMem(4 bytes @ 0xE000EDF0)  returns 0x00 (0001ms, 0893ms total)
T1C34 000:936 JLINK_WriteU32(0xE000EDFC, 0x01000000) -- CPU_WriteMem(4 bytes @ 0xE000EDFC)  returns 0x00 (0001ms, 0894ms total)
T1C34 000:952 JLINK_GetHWStatus(...)  returns 0x00 (0001ms, 0895ms total)
T1C34 000:964 JLINK_GetNumBPUnits(Type = 0xFFFFFF00)  returns 0x06 (0000ms, 0895ms total)
T1C34 000:964 JLINK_GetNumBPUnits(Type = 0xF0)  returns 0x2000 (0000ms, 0895ms total)
T1C34 000:964 JLINK_GetNumWPUnits()  returns 0x04 (0000ms, 0895ms total)
T1C34 000:972 JLINK_GetSpeed()  returns 0x1770 (0000ms, 0895ms total)
T1C34 000:977 JLINK_ReadMemU32(0xE000E004, 0x0001 Items, ...) -- CPU_ReadMem(4 bytes @ 0xE000E004) - Data: 05 00 00 00  returns 0x01 (0001ms, 0896ms total)
T1C34 000:978 JLINK_ReadMemU32(0xE000E004, 0x0001 Items, ...) -- CPU_ReadMem(4 bytes @ 0xE000E004) - Data: 05 00 00 00  returns 0x01 (0001ms, 0897ms total)
T1C34 000:979 JLINK_WriteMem(0xE0001000, 0x001C Bytes, ...) - Data: 01 00 00 00 00 00 00 00 00 00 00 00 00 00 00 00 ... -- CPU_WriteMem(28 bytes @ 0xE0001000)  returns 0x1C (0002ms, 0899ms total)
T1C34 000:981 JLINK_ReadMem (0xE0001000, 0x001C Bytes, ...) -- CPU_ReadMem(28 bytes @ 0xE0001000) - Data: 01 00 00 40 00 00 00 00 00 00 00 00 00 00 00 00 ...  returns 0x00 (0001ms, 0900ms total)
T1C34 000:982 JLINK_Halt()  returns 0x00 (0000ms, 0900ms total)
T1C34 000:982 JLINK_IsHalted()  returns TRUE (0000ms, 0900ms total)
T1C34 000:985 JLINK_WriteMem(0x20000000, 0x0128 Bytes, ...) - Data: 00 BE 0A E0 0D 78 2D 06 68 40 08 24 40 00 00 D3 ... -- CPU_WriteMem(296 bytes @ 0x20000000)  returns 0x128 (0002ms, 0902ms total)
T1C34 000:988 JLINK_WriteReg(R0, 0x01000000)  returns 0x00 (0000ms, 0902ms total)
T1C34 000:988 JLINK_WriteReg(R1, 0x00B71B00)  returns 0x00 (0000ms, 0902ms total)
T1C34 000:988 JLINK_WriteReg(R2, 0x00000001)  returns 0x00 (0000ms, 0902ms total)
T1C34 000:988 JLINK_WriteReg(R3, 0x00000000)  returns 0x00 (0000ms, 0902ms total)
T1C34 000:988 JLINK_WriteReg(R4, 0x00000000)  returns 0x00 (0000ms, 0902ms total)
T1C34 000:988 JLINK_WriteReg(R5, 0x00000000)  returns 0x00 (0000ms, 0902ms total)
T1C34 000:988 JLINK_WriteReg(R6, 0x00000000)  returns 0x00 (0000ms, 0902ms total)
T1C34 000:988 JLINK_WriteReg(R7, 0x00000000)  returns 0x00 (0000ms, 0902ms total)
T1C34 000:988 JLINK_WriteReg(R8, 0x00000000)  returns 0x00 (0000ms, 0902ms total)
T1C34 000:988 JLINK_WriteReg(R9, 0x20000124)  returns 0x00 (0000ms, 0902ms total)
T1C34 000:988 JLINK_WriteReg(R10, 0x00000000)  returns 0x00 (0000ms, 0902ms total)
T1C34 000:988 JLINK_WriteReg(R11, 0x00000000)  returns 0x00 (0000ms, 0902ms total)
T1C34 000:988 JLINK_WriteReg(R12, 0x00000000)  returns 0x00 (0000ms, 0902ms total)
T1C34 000:988 JLINK_WriteReg(R13 (SP), 0x20001000)  returns 0x00 (0000ms, 0902ms total)
T1C34 000:988 JLINK_WriteReg(R14, 0x20000001)  returns 0x00 (0000ms, 0902ms total)
T1C34 000:988 JLINK_WriteReg(R15 (PC), 0x20000038)  returns 0x00 (0000ms, 0902ms total)
T1C34 000:988 JLINK_WriteReg(XPSR, 0x01000000)  returns 0x00 (0000ms, 0902ms total)
T1C34 000:988 JLINK_WriteReg(MSP, 0x20001000)  returns 0x00 (0000ms, 0902ms total)
T1C34 000:988 JLINK_WriteReg(PSP, 0x20001000)  returns 0x00 (0000ms, 0902ms total)
T1C34 000:988 JLINK_WriteReg(CFBP, 0x00000000)  returns 0x00 (0000ms, 0902ms total)
T1C34 000:988 JLINK_SetBPEx(Addr = 0x20000000, Type = 0xFFFFFFF2) -- CPU_ReadMem(4 bytes @ 0x20000000) -- CPU_WriteMem(4 bytes @ 0x20000000) -- CPU_ReadMem(4 bytes @ 0x20000000) -- CPU_WriteMem(4 bytes @ 0x20000000) -- CPU_ReadMem(2 bytes @ 0x20000000)  returns 0x00000001 (0004ms, 0906ms total)
T1C34 000:992 JLINK_Go() -- CPU_WriteMem(2 bytes @ 0x20000000) -- CPU_ReadMem(4 bytes @ 0xE0001000) -- CPU_WriteMem(4 bytes @ 0xE0002008) -- CPU_WriteMem(4 bytes @ 0xE000200C) -- CPU_WriteMem(4 bytes @ 0xE0002010) -- CPU_WriteMem(4 bytes @ 0xE0002014) -- CPU_WriteMem(4 bytes @ 0xE0002018) -- CPU_WriteMem(4 bytes @ 0xE000201C) -- CPU_WriteMem(4 bytes @ 0xE0001004) (0007ms, 0913ms total)
T1C34 000:999 JLINK_IsHalted() -- CPU_ReadMem(2 bytes @ 0x20000000)  returns TRUE (0005ms, 0918ms total)
T1C34 001:005 JLINK_ReadReg(R15 (PC))  returns 0x20000000 (0000ms, 0913ms total)
T1C34 001:005 JLINK_ClrBPEx(BPHandle = 0x00000001)  returns 0x00 (0000ms, 0913ms total)
T1C34 001:005 JLINK_ReadReg(R0)  returns 0x00000000 (0000ms, 0913ms total)
T1C34 001:005 JLINK_WriteReg(R0, 0x01000000)  returns 0x00 (0000ms, 0913ms total)
T1C34 001:005 JLINK_WriteReg(R1, 0x00B71B00)  returns 0x00 (0000ms, 0913ms total)
T1C34 001:005 JLINK_WriteReg(R2, 0x00000001)  returns 0x00 (0000ms, 0913ms total)
T1C34 001:005 JLINK_WriteReg(R3, 0x00000000)  returns 0x00 (0000ms, 0913ms total)
T1C34 001:005 JLINK_WriteReg(R4, 0x00000000)  returns 0x00 (0000ms, 0913ms total)
T1C34 001:005 JLINK_WriteReg(R5, 0x00000000)  returns 0x00 (0000ms, 0913ms total)
T1C34 001:005 JLINK_WriteReg(R6, 0x00000000)  returns 0x00 (0000ms, 0913ms total)
T1C34 001:005 JLINK_WriteReg(R7, 0x00000000)  returns 0x00 (0000ms, 0913ms total)
T1C34 001:005 JLINK_WriteReg(R8, 0x00000000)  returns 0x00 (0000ms, 0913ms total)
T1C34 001:005 JLINK_WriteReg(R9, 0x20000124)  returns 0x00 (0000ms, 0913ms total)
T1C34 001:005 JLINK_WriteReg(R10, 0x00000000)  returns 0x00 (0000ms, 0913ms total)
T1C34 001:005 JLINK_WriteReg(R11, 0x00000000)  returns 0x00 (0000ms, 0913ms total)
T1C34 001:005 JLINK_WriteReg(R12, 0x00000000)  returns 0x00 (0000ms, 0913ms total)
T1C34 001:005 JLINK_WriteReg(R13 (SP), 0x20001000)  returns 0x00 (0000ms, 0913ms total)
T1C34 001:005 JLINK_WriteReg(R14, 0x20000001)  returns 0x00 (0000ms, 0913ms total)
T1C34 001:005 JLINK_WriteReg(R15 (PC), 0x20000056)  returns 0x00 (0000ms, 0913ms total)
T1C34 001:005 JLINK_WriteReg(XPSR, 0x01000000)  returns 0x00 (0000ms, 0913ms total)
T1C34 001:005 JLINK_WriteReg(MSP, 0x20001000)  returns 0x00 (0000ms, 0913ms total)
T1C34 001:005 JLINK_WriteReg(PSP, 0x20001000)  returns 0x00 (0000ms, 0913ms total)
T1C34 001:005 JLINK_WriteReg(CFBP, 0x00000000)  returns 0x00 (0000ms, 0913ms total)
T1C34 001:005 JLINK_SetBPEx(Addr = 0x20000000, Type = 0xFFFFFFF2)  returns 0x00000002 (0000ms, 0913ms total)
T1C34 001:005 JLINK_Go() -- CPU_ReadMem(4 bytes @ 0xE0001000) (0004ms, 0917ms total)
T1C34 001:009 JLINK_IsHalted()  returns FALSE (0001ms, 0918ms total)
T1C34 001:043 JLINK_IsHalted()  returns FALSE (0001ms, 0918ms total)
T1C34 001:045 JLINK_IsHalted()  returns FALSE (0001ms, 0918ms total)
T1C34 001:049 JLINK_IsHalted()  returns FALSE (0001ms, 0918ms total)
T1C34 001:051 JLINK_IsHalted()  returns FALSE (0001ms, 0918ms total)
T1C34 001:053 JLINK_IsHalted() -- CPU_ReadMem(2 bytes @ 0x20000000)  returns TRUE (0004ms, 0921ms total)
T1C34 001:057 JLINK_ReadReg(R15 (PC))  returns 0x20000000 (0000ms, 0917ms total)
T1C34 001:057 JLINK_ClrBPEx(BPHandle = 0x00000002)  returns 0x00 (0000ms, 0917ms total)
T1C34 001:057 JLINK_ReadReg(R0)  returns 0x00000000 (0000ms, 0917ms total)
T1C34 001:109 JLINK_WriteReg(R0, 0x00000001)  returns 0x00 (0000ms, 0917ms total)
T1C34 001:109 JLINK_WriteReg(R1, 0x00B71B00)  returns 0x00 (0000ms, 0917ms total)
T1C34 001:109 JLINK_WriteReg(R2, 0x00000001)  returns 0x00 (0000ms, 0917ms total)
T1C34 001:109 JLINK_WriteReg(R3, 0x00000000)  returns 0x00 (0000ms, 0917ms total)
T1C34 001:109 JLINK_WriteReg(R4, 0x00000000)  returns 0x00 (0000ms, 0917ms total)
T1C34 001:109 JLINK_WriteReg(R5, 0x00000000)  returns 0x00 (0000ms, 0917ms total)
T1C34 001:109 JLINK_WriteReg(R6, 0x00000000)  returns 0x00 (0000ms, 0917ms total)
T1C34 001:109 JLINK_WriteReg(R7, 0x00000000)  returns 0x00 (0000ms, 0917ms total)
T1C34 001:109 JLINK_WriteReg(R8, 0x00000000)  returns 0x00 (0000ms, 0917ms total)
T1C34 001:109 JLINK_WriteReg(R9, 0x20000124)  returns 0x00 (0000ms, 0917ms total)
T1C34 001:109 JLINK_WriteReg(R10, 0x00000000)  returns 0x00 (0000ms, 0917ms total)
T1C34 001:109 JLINK_WriteReg(R11, 0x00000000)  returns 0x00 (0000ms, 0917ms total)
T1C34 001:109 JLINK_WriteReg(R12, 0x00000000)  returns 0x00 (0000ms, 0917ms total)
T1C34 001:109 JLINK_WriteReg(R13 (SP), 0x20001000)  returns 0x00 (0000ms, 0917ms total)
T1C34 001:109 JLINK_WriteReg(R14, 0x20000001)  returns 0x00 (0000ms, 0917ms total)
T1C34 001:109 JLINK_WriteReg(R15 (PC), 0x20000052)  returns 0x00 (0000ms, 0917ms total)
T1C34 001:109 JLINK_WriteReg(XPSR, 0x01000000)  returns 0x00 (0000ms, 0917ms total)
T1C34 001:109 JLINK_WriteReg(MSP, 0x20001000)  returns 0x00 (0000ms, 0917ms total)
T1C34 001:109 JLINK_WriteReg(PSP, 0x20001000)  returns 0x00 (0000ms, 0917ms total)
T1C34 001:109 JLINK_WriteReg(CFBP, 0x00000000)  returns 0x00 (0000ms, 0917ms total)
T1C34 001:109 JLINK_SetBPEx(Addr = 0x20000000, Type = 0xFFFFFFF2)  returns 0x00000003 (0000ms, 0917ms total)
T1C34 001:109 JLINK_Go() -- CPU_ReadMem(4 bytes @ 0xE0001000) (0003ms, 0920ms total)
T1C34 001:112 JLINK_IsHalted() -- CPU_ReadMem(2 bytes @ 0x20000000)  returns TRUE (0004ms, 0924ms total)
T1C34 001:116 JLINK_ReadReg(R15 (PC))  returns 0x20000000 (0000ms, 0920ms total)
T1C34 001:116 JLINK_ClrBPEx(BPHandle = 0x00000003)  returns 0x00 (0000ms, 0920ms total)
T1C34 001:116 JLINK_ReadReg(R0)  returns 0x00000000 (0000ms, 0920ms total)
T1C34 001:121 JLINK_WriteMem(0x20000000, 0x0128 Bytes, ...) - Data: 00 BE 0A E0 0D 78 2D 06 68 40 08 24 40 00 00 D3 ... -- CPU_WriteMem(296 bytes @ 0x20000000)  returns 0x128 (0002ms, 0922ms total)
T1C34 001:123 JLINK_WriteReg(R0, 0x01000000)  returns 0x00 (0000ms, 0922ms total)
T1C34 001:123 JLINK_WriteReg(R1, 0x00B71B00)  returns 0x00 (0000ms, 0922ms total)
T1C34 001:123 JLINK_WriteReg(R2, 0x00000002)  returns 0x00 (0000ms, 0922ms total)
T1C34 001:123 JLINK_WriteReg(R3, 0x00000000)  returns 0x00 (0000ms, 0922ms total)
T1C34 001:123 JLINK_WriteReg(R4, 0x00000000)  returns 0x00 (0000ms, 0922ms total)
T1C34 001:123 JLINK_WriteReg(R5, 0x00000000)  returns 0x00 (0000ms, 0922ms total)
T1C34 001:123 JLINK_WriteReg(R6, 0x00000000)  returns 0x00 (0000ms, 0922ms total)
T1C34 001:123 JLINK_WriteReg(R7, 0x00000000)  returns 0x00 (0000ms, 0922ms total)
T1C34 001:123 JLINK_WriteReg(R8, 0x00000000)  returns 0x00 (0000ms, 0922ms total)
T1C34 001:123 JLINK_WriteReg(R9, 0x20000124)  returns 0x00 (0000ms, 0922ms total)
T1C34 001:123 JLINK_WriteReg(R10, 0x00000000)  returns 0x00 (0000ms, 0922ms total)
T1C34 001:123 JLINK_WriteReg(R11, 0x00000000)  returns 0x00 (0000ms, 0922ms total)
T1C34 001:123 JLINK_WriteReg(R12, 0x00000000)  returns 0x00 (0000ms, 0922ms total)
T1C34 001:123 JLINK_WriteReg(R13 (SP), 0x20001000)  returns 0x00 (0000ms, 0922ms total)
T1C34 001:123 JLINK_WriteReg(R14, 0x20000001)  returns 0x00 (0000ms, 0922ms total)
T1C34 001:123 JLINK_WriteReg(R15 (PC), 0x20000038)  returns 0x00 (0000ms, 0922ms total)
T1C34 001:123 JLINK_WriteReg(XPSR, 0x01000000)  returns 0x00 (0000ms, 0922ms total)
T1C34 001:123 JLINK_WriteReg(MSP, 0x20001000)  returns 0x00 (0000ms, 0922ms total)
T1C34 001:123 JLINK_WriteReg(PSP, 0x20001000)  returns 0x00 (0000ms, 0922ms total)
T1C34 001:123 JLINK_WriteReg(CFBP, 0x00000000)  returns 0x00 (0000ms, 0922ms total)
T1C34 001:123 JLINK_SetBPEx(Addr = 0x20000000, Type = 0xFFFFFFF2) -- CPU_ReadMem(4 bytes @ 0x20000000) -- CPU_WriteMem(4 bytes @ 0x20000000) -- CPU_ReadMem(4 bytes @ 0x20000000) -- CPU_WriteMem(4 bytes @ 0x20000000) -- CPU_ReadMem(2 bytes @ 0x20000000)  returns 0x00000004 (0005ms, 0927ms total)
T1C34 001:128 JLINK_Go() -- CPU_WriteMem(2 bytes @ 0x20000000) -- CPU_ReadMem(4 bytes @ 0xE0001000) (0004ms, 0931ms total)
T1C34 001:132 JLINK_IsHalted() -- CPU_ReadMem(2 bytes @ 0x20000000)  returns TRUE (0004ms, 0935ms total)
T1C34 001:136 JLINK_ReadReg(R15 (PC))  returns 0x20000000 (0000ms, 0931ms total)
T1C34 001:136 JLINK_ClrBPEx(BPHandle = 0x00000004)  returns 0x00 (0000ms, 0931ms total)
T1C34 001:136 JLINK_ReadReg(R0)  returns 0x00000000 (0000ms, 0931ms total)
T1C34 001:136 JLINK_WriteMem(0x20000128, 0x0400 Bytes, ...) - Data: 5A A5 A5 5A 00 F8 0F 00 7D 24 A3 EF FF FF FF FF ... -- CPU_WriteMem(1024 bytes @ 0x20000128)  returns 0x400 (0004ms, 0935ms total)
T1C34 001:140 JLINK_WriteReg(R0, 0x01000000)  returns 0x00 (0000ms, 0935ms total)
T1C34 001:140 JLINK_WriteReg(R1, 0x0000000C)  returns 0x00 (0000ms, 0935ms total)
T1C34 001:140 JLINK_WriteReg(R2, 0x20000128)  returns 0x00 (0000ms, 0935ms total)
T1C34 001:140 JLINK_WriteReg(R3, 0x00000000)  returns 0x00 (0000ms, 0935ms total)
T1C34 001:140 JLINK_WriteReg(R4, 0x00000000)  returns 0x00 (0000ms, 0935ms total)
T1C34 001:140 JLINK_WriteReg(R5, 0x00000000)  returns 0x00 (0000ms, 0935ms total)
T1C34 001:140 JLINK_WriteReg(R6, 0x00000000)  returns 0x00 (0000ms, 0935ms total)
T1C34 001:140 JLINK_WriteReg(R7, 0x00000000)  returns 0x00 (0000ms, 0935ms total)
T1C34 001:140 JLINK_WriteReg(R8, 0x00000000)  returns 0x00 (0000ms, 0935ms total)
T1C34 001:140 JLINK_WriteReg(R9, 0x20000124)  returns 0x00 (0000ms, 0935ms total)
T1C34 001:140 JLINK_WriteReg(R10, 0x00000000)  returns 0x00 (0000ms, 0935ms total)
T1C34 001:140 JLINK_WriteReg(R11, 0x00000000)  returns 0x00 (0000ms, 0935ms total)
T1C34 001:140 JLINK_WriteReg(R12, 0x00000000)  returns 0x00 (0000ms, 0935ms total)
T1C34 001:140 JLINK_WriteReg(R13 (SP), 0x20001000)  returns 0x00 (0000ms, 0935ms total)
T1C34 001:140 JLINK_WriteReg(R14, 0x20000001)  returns 0x00 (0000ms, 0935ms total)
T1C34 001:140 JLINK_WriteReg(R15 (PC), 0x20000092)  returns 0x00 (0000ms, 0935ms total)
T1C34 001:140 JLINK_WriteReg(XPSR, 0x01000000)  returns 0x00 (0000ms, 0935ms total)
T1C34 001:140 JLINK_WriteReg(MSP, 0x20001000)  returns 0x00 (0001ms, 0936ms total)
T1C34 001:141 JLINK_WriteReg(PSP, 0x20001000)  returns 0x00 (0000ms, 0936ms total)
T1C34 001:141 JLINK_WriteReg(CFBP, 0x00000000)  returns 0x00 (0000ms, 0936ms total)
T1C34 001:141 JLINK_SetBPEx(Addr = 0x20000000, Type = 0xFFFFFFF2)  returns 0x00000005 (0000ms, 0936ms total)
T1C34 001:141 JLINK_Go() -- CPU_ReadMem(4 bytes @ 0xE0001000) (0002ms, 0938ms total)
T1C34 001:143 JLINK_IsHalted() -- CPU_ReadMem(2 bytes @ 0x20000000)  returns TRUE (0004ms, 0942ms total)
T1C34 001:147 JLINK_ReadReg(R15 (PC))  returns 0x20000000 (0000ms, 0938ms total)
T1C34 001:147 JLINK_ClrBPEx(BPHandle = 0x00000005)  returns 0x00 (0000ms, 0938ms total)
T1C34 001:147 JLINK_ReadReg(R0)  returns 0x00000000 (0000ms, 0938ms total)
T1C34 001:149 JLINK_WriteMem(0x20000128, 0x0400 Bytes, ...) - Data: 10 8D 00 20 31 09 00 01 35 09 00 01 37 09 00 01 ... -- CPU_WriteMem(1024 bytes @ 0x20000128)  returns 0x400 (0003ms, 0941ms total)
T1C34 001:152 JLINK_WriteReg(R0, 0x01000800)  returns 0x00 (0000ms, 0941ms total)
T1C34 001:152 JLINK_WriteReg(R1, 0x00000400)  returns 0x00 (0000ms, 0941ms total)
T1C34 001:152 JLINK_WriteReg(R2, 0x20000128)  returns 0x00 (0000ms, 0941ms total)
T1C34 001:152 JLINK_WriteReg(R3, 0x00000000)  returns 0x00 (0000ms, 0941ms total)
T1C34 001:152 JLINK_WriteReg(R4, 0x00000000)  returns 0x00 (0000ms, 0941ms total)
T1C34 001:152 JLINK_WriteReg(R5, 0x00000000)  returns 0x00 (0000ms, 0941ms total)
T1C34 001:152 JLINK_WriteReg(R6, 0x00000000)  returns 0x00 (0000ms, 0941ms total)
T1C34 001:152 JLINK_WriteReg(R7, 0x00000000)  returns 0x00 (0000ms, 0941ms total)
T1C34 001:152 JLINK_WriteReg(R8, 0x00000000)  returns 0x00 (0000ms, 0941ms total)
T1C34 001:152 JLINK_WriteReg(R9, 0x20000124)  returns 0x00 (0000ms, 0941ms total)
T1C34 001:153 JLINK_WriteReg(R10, 0x00000000)  returns 0x00 (0000ms, 0941ms total)
T1C34 001:153 JLINK_WriteReg(R11, 0x00000000)  returns 0x00 (0000ms, 0941ms total)
T1C34 001:153 JLINK_WriteReg(R12, 0x00000000)  returns 0x00 (0000ms, 0941ms total)
T1C34 001:153 JLINK_WriteReg(R13 (SP), 0x20001000)  returns 0x00 (0000ms, 0941ms total)
T1C34 001:153 JLINK_WriteReg(R14, 0x20000001)  returns 0x00 (0000ms, 0941ms total)
T1C34 001:153 JLINK_WriteReg(R15 (PC), 0x20000092)  returns 0x00 (0000ms, 0941ms total)
T1C34 001:153 JLINK_WriteReg(XPSR, 0x01000000)  returns 0x00 (0000ms, 0941ms total)
T1C34 001:153 JLINK_WriteReg(MSP, 0x20001000)  returns 0x00 (0000ms, 0941ms total)
T1C34 001:153 JLINK_WriteReg(PSP, 0x20001000)  returns 0x00 (0000ms, 0941ms total)
T1C34 001:153 JLINK_WriteReg(CFBP, 0x00000000)  returns 0x00 (0000ms, 0941ms total)
T1C34 001:153 JLINK_SetBPEx(Addr = 0x20000000, Type = 0xFFFFFFF2)  returns 0x00000006 (0000ms, 0941ms total)
T1C34 001:153 JLINK_Go() -- CPU_ReadMem(4 bytes @ 0xE0001000) (0002ms, 0943ms total)
T1C34 001:155 JLINK_IsHalted()  returns FALSE (0001ms, 0944ms total)
T1C34 001:162 JLINK_IsHalted()  returns FALSE (0001ms, 0944ms total)
T1C34 001:164 JLINK_IsHalted()  returns FALSE (0001ms, 0944ms total)
T1C34 001:166 JLINK_IsHalted() -- CPU_ReadMem(2 bytes @ 0x20000000)  returns TRUE (0004ms, 0947ms total)
T1C34 001:170 JLINK_ReadReg(R15 (PC))  returns 0x20000000 (0000ms, 0943ms total)
T1C34 001:170 JLINK_ClrBPEx(BPHandle = 0x00000006)  returns 0x00 (0000ms, 0943ms total)
T1C34 001:170 JLINK_ReadReg(R0)  returns 0x00000000 (0000ms, 0943ms total)
T1C34 001:171 JLINK_WriteMem(0x20000128, 0x0400 Bytes, ...) - Data: F0 4D A2 E7 2D E9 FE 4F 80 46 81 EA 03 00 C0 0F ... -- CPU_WriteMem(1024 bytes @ 0x20000128)  returns 0x400 (0004ms, 0947ms total)
T1C34 001:175 JLINK_WriteReg(R0, 0x01000C00)  returns 0x00 (0000ms, 0947ms total)
T1C34 001:175 JLINK_WriteReg(R1, 0x00000400)  returns 0x00 (0000ms, 0947ms total)
T1C34 001:175 JLINK_WriteReg(R2, 0x20000128)  returns 0x00 (0000ms, 0947ms total)
T1C34 001:175 JLINK_WriteReg(R3, 0x00000000)  returns 0x00 (0000ms, 0947ms total)
T1C34 001:175 JLINK_WriteReg(R4, 0x00000000)  returns 0x00 (0000ms, 0947ms total)
T1C34 001:175 JLINK_WriteReg(R5, 0x00000000)  returns 0x00 (0000ms, 0947ms total)
T1C34 001:175 JLINK_WriteReg(R6, 0x00000000)  returns 0x00 (0000ms, 0947ms total)
T1C34 001:175 JLINK_WriteReg(R7, 0x00000000)  returns 0x00 (0000ms, 0947ms total)
T1C34 001:175 JLINK_WriteReg(R8, 0x00000000)  returns 0x00 (0000ms, 0947ms total)
T1C34 001:175 JLINK_WriteReg(R9, 0x20000124)  returns 0x00 (0000ms, 0947ms total)
T1C34 001:175 JLINK_WriteReg(R10, 0x00000000)  returns 0x00 (0000ms, 0947ms total)
T1C34 001:175 JLINK_WriteReg(R11, 0x00000000)  returns 0x00 (0000ms, 0947ms total)
T1C34 001:175 JLINK_WriteReg(R12, 0x00000000)  returns 0x00 (0000ms, 0947ms total)
T1C34 001:175 JLINK_WriteReg(R13 (SP), 0x20001000)  returns 0x00 (0000ms, 0947ms total)
T1C34 001:175 JLINK_WriteReg(R14, 0x20000001)  returns 0x00 (0000ms, 0947ms total)
T1C34 001:175 JLINK_WriteReg(R15 (PC), 0x20000092)  returns 0x00 (0000ms, 0947ms total)
T1C34 001:175 JLINK_WriteReg(XPSR, 0x01000000)  returns 0x00 (0000ms, 0947ms total)
T1C34 001:175 JLINK_WriteReg(MSP, 0x20001000)  returns 0x00 (0000ms, 0947ms total)
T1C34 001:175 JLINK_WriteReg(PSP, 0x20001000)  returns 0x00 (0000ms, 0947ms total)
T1C34 001:175 JLINK_WriteReg(CFBP, 0x00000000)  returns 0x00 (0000ms, 0947ms total)
T1C34 001:175 JLINK_SetBPEx(Addr = 0x20000000, Type = 0xFFFFFFF2)  returns 0x00000007 (0000ms, 0947ms total)
T1C34 001:175 JLINK_Go() -- CPU_ReadMem(4 bytes @ 0xE0001000) (0003ms, 0950ms total)
T1C34 001:178 JLINK_IsHalted()  returns FALSE (0001ms, 0951ms total)
T1C34 001:180 JLINK_IsHalted()  returns FALSE (0001ms, 0951ms total)
T1C34 001:182 JLINK_IsHalted()  returns FALSE (0001ms, 0951ms total)
T1C34 001:184 JLINK_IsHalted()  returns FALSE (0001ms, 0951ms total)
T1C34 001:186 JLINK_IsHalted()  returns FALSE (0000ms, 0950ms total)
T1C34 001:187 JLINK_IsHalted() -- CPU_ReadMem(2 bytes @ 0x20000000)  returns TRUE (0003ms, 0953ms total)
T1C34 001:190 JLINK_ReadReg(R15 (PC))  returns 0x20000000 (0000ms, 0950ms total)
T1C34 001:190 JLINK_ClrBPEx(BPHandle = 0x00000007)  returns 0x00 (0000ms, 0950ms total)
T1C34 001:190 JLINK_ReadReg(R0)  returns 0x00000000 (0000ms, 0950ms total)
T1C34 001:191 JLINK_WriteMem(0x20000128, 0x0400 Bytes, ...) - Data: 22 A0 03 F0 9D F9 01 21 09 20 01 F0 03 FC 01 20 ... -- CPU_WriteMem(1024 bytes @ 0x20000128)  returns 0x400 (0004ms, 0954ms total)
T1C34 001:195 JLINK_WriteReg(R0, 0x01001000)  returns 0x00 (0000ms, 0954ms total)
T1C34 001:195 JLINK_WriteReg(R1, 0x00000400)  returns 0x00 (0000ms, 0954ms total)
T1C34 001:195 JLINK_WriteReg(R2, 0x20000128)  returns 0x00 (0000ms, 0954ms total)
T1C34 001:195 JLINK_WriteReg(R3, 0x00000000)  returns 0x00 (0000ms, 0954ms total)
T1C34 001:195 JLINK_WriteReg(R4, 0x00000000)  returns 0x00 (0000ms, 0954ms total)
T1C34 001:195 JLINK_WriteReg(R5, 0x00000000)  returns 0x00 (0000ms, 0954ms total)
T1C34 001:195 JLINK_WriteReg(R6, 0x00000000)  returns 0x00 (0000ms, 0954ms total)
T1C34 001:195 JLINK_WriteReg(R7, 0x00000000)  returns 0x00 (0000ms, 0954ms total)
T1C34 001:195 JLINK_WriteReg(R8, 0x00000000)  returns 0x00 (0000ms, 0954ms total)
T1C34 001:195 JLINK_WriteReg(R9, 0x20000124)  returns 0x00 (0000ms, 0954ms total)
T1C34 001:195 JLINK_WriteReg(R10, 0x00000000)  returns 0x00 (0000ms, 0954ms total)
T1C34 001:195 JLINK_WriteReg(R11, 0x00000000)  returns 0x00 (0000ms, 0954ms total)
T1C34 001:195 JLINK_WriteReg(R12, 0x00000000)  returns 0x00 (0000ms, 0954ms total)
T1C34 001:195 JLINK_WriteReg(R13 (SP), 0x20001000)  returns 0x00 (0000ms, 0954ms total)
T1C34 001:195 JLINK_WriteReg(R14, 0x20000001)  returns 0x00 (0000ms, 0954ms total)
T1C34 001:195 JLINK_WriteReg(R15 (PC), 0x20000092)  returns 0x00 (0000ms, 0954ms total)
T1C34 001:195 JLINK_WriteReg(XPSR, 0x01000000)  returns 0x00 (0000ms, 0954ms total)
T1C34 001:195 JLINK_WriteReg(MSP, 0x20001000)  returns 0x00 (0000ms, 0954ms total)
T1C34 001:195 JLINK_WriteReg(PSP, 0x20001000)  returns 0x00 (0000ms, 0954ms total)
T1C34 001:195 JLINK_WriteReg(CFBP, 0x00000000)  returns 0x00 (0000ms, 0954ms total)
T1C34 001:195 JLINK_SetBPEx(Addr = 0x20000000, Type = 0xFFFFFFF2)  returns 0x00000008 (0000ms, 0954ms total)
T1C34 001:195 JLINK_Go() -- CPU_ReadMem(4 bytes @ 0xE0001000) (0003ms, 0957ms total)
T1C34 001:198 JLINK_IsHalted()  returns FALSE (0001ms, 0958ms total)
T1C34 001:200 JLINK_IsHalted()  returns FALSE (0001ms, 0958ms total)
T1C34 001:202 JLINK_IsHalted()  returns FALSE (0001ms, 0958ms total)
T1C34 001:204 JLINK_IsHalted()  returns FALSE (0001ms, 0958ms total)
T1C34 001:206 JLINK_IsHalted()  returns FALSE (0001ms, 0958ms total)
T1C34 001:208 JLINK_IsHalted() -- CPU_ReadMem(2 bytes @ 0x20000000)  returns TRUE (0004ms, 0961ms total)
T1C34 001:212 JLINK_ReadReg(R15 (PC))  returns 0x20000000 (0000ms, 0957ms total)
T1C34 001:212 JLINK_ClrBPEx(BPHandle = 0x00000008)  returns 0x00 (0000ms, 0957ms total)
T1C34 001:212 JLINK_ReadReg(R0)  returns 0x00000000 (0000ms, 0957ms total)
T1C34 001:213 JLINK_WriteMem(0x20000128, 0x0400 Bytes, ...) - Data: 4D 75 74 65 78 54 73 6B 31 00 00 00 C4 00 00 20 ... -- CPU_WriteMem(1024 bytes @ 0x20000128)  returns 0x400 (0004ms, 0961ms total)
T1C34 001:217 JLINK_WriteReg(R0, 0x01001400)  returns 0x00 (0000ms, 0961ms total)
T1C34 001:217 JLINK_WriteReg(R1, 0x00000400)  returns 0x00 (0000ms, 0961ms total)
T1C34 001:217 JLINK_WriteReg(R2, 0x20000128)  returns 0x00 (0000ms, 0961ms total)
T1C34 001:217 JLINK_WriteReg(R3, 0x00000000)  returns 0x00 (0000ms, 0961ms total)
T1C34 001:217 JLINK_WriteReg(R4, 0x00000000)  returns 0x00 (0000ms, 0961ms total)
T1C34 001:217 JLINK_WriteReg(R5, 0x00000000)  returns 0x00 (0000ms, 0961ms total)
T1C34 001:217 JLINK_WriteReg(R6, 0x00000000)  returns 0x00 (0000ms, 0961ms total)
T1C34 001:217 JLINK_WriteReg(R7, 0x00000000)  returns 0x00 (0000ms, 0961ms total)
T1C34 001:217 JLINK_WriteReg(R8, 0x00000000)  returns 0x00 (0000ms, 0961ms total)
T1C34 001:217 JLINK_WriteReg(R9, 0x20000124)  returns 0x00 (0000ms, 0961ms total)
T1C34 001:217 JLINK_WriteReg(R10, 0x00000000)  returns 0x00 (0000ms, 0961ms total)
T1C34 001:217 JLINK_WriteReg(R11, 0x00000000)  returns 0x00 (0000ms, 0961ms total)
T1C34 001:217 JLINK_WriteReg(R12, 0x00000000)  returns 0x00 (0000ms, 0961ms total)
T1C34 001:217 JLINK_WriteReg(R13 (SP), 0x20001000)  returns 0x00 (0000ms, 0961ms total)
T1C34 001:217 JLINK_WriteReg(R14, 0x20000001)  returns 0x00 (0000ms, 0961ms total)
T1C34 001:217 JLINK_WriteReg(R15 (PC), 0x20000092)  returns 0x00 (0000ms, 0961ms total)
T1C34 001:217 JLINK_WriteReg(XPSR, 0x01000000)  returns 0x00 (0000ms, 0961ms total)
T1C34 001:217 JLINK_WriteReg(MSP, 0x20001000)  returns 0x00 (0000ms, 0961ms total)
T1C34 001:217 JLINK_WriteReg(PSP, 0x20001000)  returns 0x00 (0000ms, 0961ms total)
T1C34 001:217 JLINK_WriteReg(CFBP, 0x00000000)  returns 0x00 (0000ms, 0961ms total)
T1C34 001:217 JLINK_SetBPEx(Addr = 0x20000000, Type = 0xFFFFFFF2)  returns 0x00000009 (0000ms, 0961ms total)
T1C34 001:217 JLINK_Go() -- CPU_ReadMem(4 bytes @ 0xE0001000) (0003ms, 0964ms total)
T1C34 001:220 JLINK_IsHalted()  returns FALSE (0001ms, 0965ms total)
T1C34 001:222 JLINK_IsHalted()  returns FALSE (0001ms, 0965ms total)
T1C34 001:224 JLINK_IsHalted()  returns FALSE (0001ms, 0965ms total)
T1C34 001:226 JLINK_IsHalted()  returns FALSE (0000ms, 0964ms total)
T1C34 001:227 JLINK_IsHalted()  returns FALSE (0001ms, 0965ms total)
T1C34 001:229 JLINK_IsHalted() -- CPU_ReadMem(2 bytes @ 0x20000000)  returns TRUE (0004ms, 0968ms total)
T1C34 001:233 JLINK_ReadReg(R15 (PC))  returns 0x20000000 (0000ms, 0964ms total)
T1C34 001:233 JLINK_ClrBPEx(BPHandle = 0x00000009)  returns 0x00 (0000ms, 0964ms total)
T1C34 001:233 JLINK_ReadReg(R0)  returns 0x00000000 (0000ms, 0964ms total)
T1C34 001:234 JLINK_WriteMem(0x20000128, 0x0400 Bytes, ...) - Data: 79 20 32 30 74 69 63 6B 73 20 2E 0A 00 00 00 00 ... -- CPU_WriteMem(1024 bytes @ 0x20000128)  returns 0x400 (0004ms, 0968ms total)
T1C34 001:238 JLINK_WriteReg(R0, 0x01001800)  returns 0x00 (0000ms, 0968ms total)
T1C34 001:238 JLINK_WriteReg(R1, 0x00000400)  returns 0x00 (0000ms, 0968ms total)
T1C34 001:238 JLINK_WriteReg(R2, 0x20000128)  returns 0x00 (0000ms, 0968ms total)
T1C34 001:238 JLINK_WriteReg(R3, 0x00000000)  returns 0x00 (0000ms, 0968ms total)
T1C34 001:238 JLINK_WriteReg(R4, 0x00000000)  returns 0x00 (0000ms, 0968ms total)
T1C34 001:238 JLINK_WriteReg(R5, 0x00000000)  returns 0x00 (0000ms, 0968ms total)
T1C34 001:238 JLINK_WriteReg(R6, 0x00000000)  returns 0x00 (0000ms, 0968ms total)
T1C34 001:238 JLINK_WriteReg(R7, 0x00000000)  returns 0x00 (0000ms, 0968ms total)
T1C34 001:238 JLINK_WriteReg(R8, 0x00000000)  returns 0x00 (0000ms, 0968ms total)
T1C34 001:238 JLINK_WriteReg(R9, 0x20000124)  returns 0x00 (0000ms, 0968ms total)
T1C34 001:238 JLINK_WriteReg(R10, 0x00000000)  returns 0x00 (0000ms, 0968ms total)
T1C34 001:238 JLINK_WriteReg(R11, 0x00000000)  returns 0x00 (0000ms, 0968ms total)
T1C34 001:238 JLINK_WriteReg(R12, 0x00000000)  returns 0x00 (0000ms, 0968ms total)
T1C34 001:238 JLINK_WriteReg(R13 (SP), 0x20001000)  returns 0x00 (0000ms, 0968ms total)
T1C34 001:238 JLINK_WriteReg(R14, 0x20000001)  returns 0x00 (0000ms, 0968ms total)
T1C34 001:238 JLINK_WriteReg(R15 (PC), 0x20000092)  returns 0x00 (0000ms, 0968ms total)
T1C34 001:238 JLINK_WriteReg(XPSR, 0x01000000)  returns 0x00 (0000ms, 0968ms total)
T1C34 001:238 JLINK_WriteReg(MSP, 0x20001000)  returns 0x00 (0000ms, 0968ms total)
T1C34 001:238 JLINK_WriteReg(PSP, 0x20001000)  returns 0x00 (0000ms, 0968ms total)
T1C34 001:238 JLINK_WriteReg(CFBP, 0x00000000)  returns 0x00 (0000ms, 0968ms total)
T1C34 001:238 JLINK_SetBPEx(Addr = 0x20000000, Type = 0xFFFFFFF2)  returns 0x0000000A (0000ms, 0968ms total)
T1C34 001:238 JLINK_Go() -- CPU_ReadMem(4 bytes @ 0xE0001000) (0003ms, 0971ms total)
T1C34 001:241 JLINK_IsHalted()  returns FALSE (0001ms, 0972ms total)
T1C34 001:243 JLINK_IsHalted()  returns FALSE (0001ms, 0972ms total)
T1C34 001:245 JLINK_IsHalted()  returns FALSE (0001ms, 0972ms total)
T1C34 001:247 JLINK_IsHalted()  returns FALSE (0001ms, 0972ms total)
T1C34 001:249 JLINK_IsHalted()  returns FALSE (0001ms, 0972ms total)
T1C34 001:251 JLINK_IsHalted() -- CPU_ReadMem(2 bytes @ 0x20000000)  returns TRUE (0004ms, 0975ms total)
T1C34 001:255 JLINK_ReadReg(R15 (PC))  returns 0x20000000 (0000ms, 0971ms total)
T1C34 001:255 JLINK_ClrBPEx(BPHandle = 0x0000000A)  returns 0x00 (0000ms, 0971ms total)
T1C34 001:255 JLINK_ReadReg(R0)  returns 0x00000000 (0000ms, 0971ms total)
T1C34 001:255 JLINK_WriteMem(0x20000128, 0x0400 Bytes, ...) - Data: 62 6F 78 20 66 72 65 65 20 6F 6B 21 0A 00 00 00 ... -- CPU_WriteMem(1024 bytes @ 0x20000128)  returns 0x400 (0004ms, 0975ms total)
T1C34 001:259 JLINK_WriteReg(R0, 0x01001C00)  returns 0x00 (0000ms, 0975ms total)
T1C34 001:259 JLINK_WriteReg(R1, 0x00000400)  returns 0x00 (0000ms, 0975ms total)
T1C34 001:259 JLINK_WriteReg(R2, 0x20000128)  returns 0x00 (0000ms, 0975ms total)
T1C34 001:259 JLINK_WriteReg(R3, 0x00000000)  returns 0x00 (0000ms, 0975ms total)
T1C34 001:259 JLINK_WriteReg(R4, 0x00000000)  returns 0x00 (0001ms, 0976ms total)
T1C34 001:260 JLINK_WriteReg(R5, 0x00000000)  returns 0x00 (0000ms, 0976ms total)
T1C34 001:260 JLINK_WriteReg(R6, 0x00000000)  returns 0x00 (0000ms, 0976ms total)
T1C34 001:260 JLINK_WriteReg(R7, 0x00000000)  returns 0x00 (0000ms, 0976ms total)
T1C34 001:260 JLINK_WriteReg(R8, 0x00000000)  returns 0x00 (0000ms, 0976ms total)
T1C34 001:260 JLINK_WriteReg(R9, 0x20000124)  returns 0x00 (0000ms, 0976ms total)
T1C34 001:260 JLINK_WriteReg(R10, 0x00000000)  returns 0x00 (0000ms, 0976ms total)
T1C34 001:260 JLINK_WriteReg(R11, 0x00000000)  returns 0x00 (0000ms, 0976ms total)
T1C34 001:260 JLINK_WriteReg(R12, 0x00000000)  returns 0x00 (0000ms, 0976ms total)
T1C34 001:260 JLINK_WriteReg(R13 (SP), 0x20001000)  returns 0x00 (0000ms, 0976ms total)
T1C34 001:260 JLINK_WriteReg(R14, 0x20000001)  returns 0x00 (0000ms, 0976ms total)
T1C34 001:260 JLINK_WriteReg(R15 (PC), 0x20000092)  returns 0x00 (0000ms, 0976ms total)
T1C34 001:260 JLINK_WriteReg(XPSR, 0x01000000)  returns 0x00 (0000ms, 0976ms total)
T1C34 001:260 JLINK_WriteReg(MSP, 0x20001000)  returns 0x00 (0000ms, 0976ms total)
T1C34 001:260 JLINK_WriteReg(PSP, 0x20001000)  returns 0x00 (0000ms, 0976ms total)
T1C34 001:260 JLINK_WriteReg(CFBP, 0x00000000)  returns 0x00 (0000ms, 0976ms total)
T1C34 001:260 JLINK_SetBPEx(Addr = 0x20000000, Type = 0xFFFFFFF2)  returns 0x0000000B (0000ms, 0976ms total)
T1C34 001:260 JLINK_Go() -- CPU_ReadMem(4 bytes @ 0xE0001000) (0002ms, 0978ms total)
T1C34 001:262 JLINK_IsHalted()  returns FALSE (0001ms, 0979ms total)
T1C34 001:268 JLINK_IsHalted()  returns FALSE (0001ms, 0979ms total)
T1C34 001:270 JLINK_IsHalted()  returns FALSE (0001ms, 0979ms total)
T1C34 001:272 JLINK_IsHalted() -- CPU_ReadMem(2 bytes @ 0x20000000)  returns TRUE (0003ms, 0981ms total)
